
T138C 000:084 SEGGER J-Link V6.00e Log File (0000ms, 0025ms total)
T138C 000:084 DLL Compiled: Aug  4 2016 09:37:38 (0000ms, 0025ms total)
T138C 000:084 Logging started @ 2024-11-07 15:27 (0000ms, 0025ms total)
T138C 000:084 JLINK_SetWarnOutHandler(...) (0000ms, 0025ms total)
T138C 000:084 JLINK_OpenEx(...)
Firmware: J-Link V11 compiled Aug  2 2023 10:34:01
Hardware: V11.00
S/N: 601012352
Feature(s): RDI, FlashBP, FlashDL, JFlash, GDB  returns O.K. (0016ms, 0041ms total)
T138C 000:100 JLINK_SetErrorOutHandler(...) (0000ms, 0041ms total)
T138C 000:100 JLINK_ExecCommand("ProjectFile = "D:\ALL\2.Study\1.STM32\1.F405\BD21TemperatureUartTest\MDK-ARM\JLinkSettings.ini"", ...). Device "ARM7" selected.  returns 0x00 (0087ms, 0128ms total)
T138C 000:196 JLINK_ExecCommand("Device = STM32F405RGTx", ...). Device "STM32F405RG" selected.  returns 0x00 (0008ms, 0136ms total)
T138C 000:204 JLINK_ExecCommand("DisableConnectionTimeout", ...).   returns 0x01 (0000ms, 0136ms total)
T138C 000:204 JLINK_GetHardwareVersion()  returns 0x1ADB0 (0000ms, 0136ms total)
T138C 000:204 JLINK_GetDLLVersion()  returns 60005 (0000ms, 0136ms total)
T138C 000:204 JLINK_GetFirmwareString(...) (0000ms, 0136ms total)
T138C 000:219 JLINK_GetDLLVersion()  returns 60005 (0000ms, 0136ms total)
T138C 000:219 JLINK_GetCompileDateTime() (0000ms, 0136ms total)
T138C 000:223 JLINK_GetFirmwareString(...) (0000ms, 0136ms total)
T138C 000:228 JLINK_GetHardwareVersion()  returns 0x1ADB0 (0000ms, 0136ms total)
T138C 000:249 JLINK_TIF_Select(JLINKARM_TIF_SWD)  returns 0x00 (0003ms, 0139ms total)
T138C 000:252 JLINK_SetSpeed(2000) (0000ms, 0139ms total)
T138C 000:252 JLINK_GetId() >0x108 TIF>Found SWD-DP with ID 0x2BA01477 >0x0D TIF> >0x28 TIF> >0x0D TIF> >0x28 TIF> >0x0D TIF> >0x28 TIF> >0x0D TIF> >0x28 TIF> >0x0D TIF> >0x21 TIF> >0x0D TIF> >0x28 TIF> >0x0D TIF> >0x28 TIF> >0x0D TIF> >0x28 TIF> >0x0D TIF> >0x21 TIF> >0x0D TIF> >0x21 TIF> >0x0D TIF> >0x28 TIF> >0x0D TIF> >0x21 TIF> >0x0D TIF> >0x21 TIF> >0x0D TIF> >0x28 TIF> >0x0D TIF> >0x28 TIF> >0x0D TIF> >0x28 TIF> >0x0D TIF> >0x21 TIF> >0x0D TIF> >0x21 TIF> >0x0D TIF> >0x28 TIF> >0x0D TIF>
 >0x28 TIF> >0x0D TIF> >0x28 TIF> >0x0D TIF> >0x21 TIF> >0x0D TIF> >0x21 TIF> >0x0D TIF> >0x28 TIF> >0x0D TIF> >0x21 TIF> >0x0D TIF> >0x21 TIF> >0x0D TIF> >0x28 TIF> >0x0D TIF> >0x21 TIF> >0x0D TIF> >0x21 TIF> >0x108 TIF>Found SWD-DP with ID 0x2BA01477 >0x0D TIF> >0x28 TIF> >0x0D TIF> >0x28 TIF> >0x0D TIF> >0x28 TIF> >0x0D TIF> >0x28 TIF> >0x0D TIF> >0x21 TIF> >0x0D TIF> >0x28 TIF> >0x0D TIF> >0x28 TIF> >0x0D TIF> >0x21 TIF> >0x0D TIF> >0x21 TIF> >0x0D TIF> >0x21 TIF>AP-IDR: 0x24770011, Type: AHB-AP
 >0x0D TIF> >0x28 TIF> >0x0D TIF> >0x28 TIF> >0x0D TIF> >0x28 TIF> >0x0D TIF> >0x21 TIF> >0x0D TIF> >0x21 TIF> >0x0D TIF> >0x28 TIF> >0x0D TIF> >0x21 TIF> >0x0D TIF> >0x21 TIF>Found Cortex-M4 r0p1, Little endian. -- CPU_ReadMem(4 bytes @ 0xE000EDF0) -- CPU_WriteMem(4 bytes @ 0xE000EDF0) -- CPU_ReadMem(4 bytes @ 0xE0002000)FPUnit: 6 code (BP) slots and 2 literal slots -- CPU_ReadMem(4 bytes @ 0xE000EDFC) -- CPU_WriteMem(4 bytes @ 0xE000EDFC) -- CPU_ReadMem(4 bytes @ 0xE0001000)
 -- CPU_WriteMem(4 bytes @ 0xE0001000) -- CPU_ReadMem(4 bytes @ 0xE000ED88) -- CPU_WriteMem(4 bytes @ 0xE000ED88) -- CPU_ReadMem(4 bytes @ 0xE000ED88) -- CPU_WriteMem(4 bytes @ 0xE000ED88)CoreSight components:ROMTbl 0 @ E00FF000 -- CPU_ReadMem(16 bytes @ 0xE00FF000) -- CPU_ReadMem(16 bytes @ 0xE000EFF0) -- CPU_ReadMem(16 bytes @ 0xE000EFE0)ROMTbl 0 [0]: FFF0F000, CID: B105E00D, PID: 000BB00C SCS -- CPU_ReadMem(16 bytes @ 0xE0001FF0) -- CPU_ReadMem(16 bytes @ 0xE0001FE0)
ROMTbl 0 [1]: FFF02000, CID: B105E00D, PID: 003BB002 DWT -- CPU_ReadMem(16 bytes @ 0xE0002FF0) -- CPU_ReadMem(16 bytes @ 0xE0002FE0)ROMTbl 0 [2]: FFF03000, CID: B105E00D, PID: 002BB003 FPB -- CPU_ReadMem(16 bytes @ 0xE0000FF0) -- CPU_ReadMem(16 bytes @ 0xE0000FE0)ROMTbl 0 [3]: FFF01000, CID: B105E00D, PID: 003BB001 ITM -- CPU_ReadMem(16 bytes @ 0xE00FF010) -- CPU_ReadMem(16 bytes @ 0xE0040FF0) -- CPU_ReadMem(16 bytes @ 0xE0040FE0)ROMTbl 0 [4]: FFF41000, CID: B105900D, PID: 000BB9A1 TPIU
 -- CPU_ReadMem(16 bytes @ 0xE0041FF0) -- CPU_ReadMem(16 bytes @ 0xE0041FE0)ROMTbl 0 [5]: FFF42000, CID: B105900D, PID: 000BB925 ETM >0x0D TIF> >0x21 TIF>  returns 0x2BA01477 (0142ms, 0281ms total)
T138C 000:394 JLINK_GetDLLVersion()  returns 60005 (0000ms, 0281ms total)
T138C 000:394 JLINK_CORE_GetFound()  returns 0xE0000FF (0000ms, 0281ms total)
T138C 000:394 JLINK_GetDebugInfo(0x100) -- Value=0xE00FF000  returns 0x00 (0000ms, 0281ms total)
T138C 000:398 JLINK_GetDebugInfo(0x100) -- Value=0xE00FF000  returns 0x00 (0000ms, 0281ms total)
T138C 000:398 JLINK_GetDebugInfo(0x101) -- Value=0xE0041000  returns 0x00 (0000ms, 0281ms total)
T138C 000:398 JLINK_GetDebugInfo(0x102) -- Value=0x00000000  returns 0x00 (0000ms, 0281ms total)
T138C 000:398 JLINK_GetDebugInfo(0x103) -- Value=0xE0040000  returns 0x00 (0000ms, 0281ms total)
T138C 000:398 JLINK_GetDebugInfo(0x104) -- Value=0xE0000000  returns 0x00 (0000ms, 0281ms total)
T138C 000:398 JLINK_GetDebugInfo(0x105) -- Value=0xE0001000  returns 0x00 (0000ms, 0281ms total)
T138C 000:398 JLINK_GetDebugInfo(0x106) -- Value=0xE0002000  returns 0x00 (0000ms, 0281ms total)
T138C 000:398 JLINK_GetDebugInfo(0x107) -- Value=0xE000E000  returns 0x00 (0000ms, 0281ms total)
T138C 000:398 JLINK_GetDebugInfo(0x10C) -- Value=0xE000EDF0  returns 0x00 (0000ms, 0281ms total)
T138C 000:398 JLINK_ReadMemU32(0xE000EF40, 0x0001 Items, ...) -- CPU is running -- CPU_ReadMem(4 bytes @ 0xE000EF40) - Data: 21 00 11 10  returns 0x01 (0001ms, 0282ms total)
T138C 000:399 JLINK_ReadMemU32(0xE000EF44, 0x0001 Items, ...) -- CPU is running -- CPU_ReadMem(4 bytes @ 0xE000EF44) - Data: 11 00 00 11  returns 0x01 (0001ms, 0283ms total)
T138C 000:400 JLINK_ReadMemU32(0xE000ED00, 0x0001 Items, ...) -- CPU is running -- CPU_ReadMem(4 bytes @ 0xE000ED00) - Data: 41 C2 0F 41  returns 0x01 (0001ms, 0284ms total)
T138C 000:401 JLINK_SetResetType(JLINKARM_RESET_TYPE_NORMAL)  returns JLINKARM_RESET_TYPE_NORMAL (0000ms, 0284ms total)
T138C 000:401 JLINK_Reset() -- CPU is running -- CPU_WriteMem(4 bytes @ 0xE000EDF0) -- CPU is running -- CPU_WriteMem(4 bytes @ 0xE000EDFC) >0x35 TIF> -- CPU is running -- CPU_WriteMem(4 bytes @ 0xE000ED0C) -- CPU is running -- CPU_ReadMem(4 bytes @ 0xE000EDF0) -- CPU is running -- CPU_ReadMem(4 bytes @ 0xE000EDF0) -- CPU is running -- CPU_ReadMem(4 bytes @ 0xE000EDF0) -- CPU is running -- CPU_ReadMem(4 bytes @ 0xE000EDF0) -- CPU is running -- CPU_ReadMem(4 bytes @ 0xE000EDF0) -- CPU is running
 -- CPU_ReadMem(4 bytes @ 0xE000EDF0) -- CPU is running -- CPU_WriteMem(4 bytes @ 0xE000EDF0) -- CPU is running -- CPU_WriteMem(4 bytes @ 0xE000EDFC) -- CPU is running -- CPU_ReadMem(4 bytes @ 0xE000EDF0) -- CPU_WriteMem(4 bytes @ 0xE0002000) -- CPU_ReadMem(4 bytes @ 0xE000EDFC) -- CPU_ReadMem(4 bytes @ 0xE0001000) (0023ms, 0307ms total)
T138C 000:424 JLINK_Halt()  returns 0x00 (0000ms, 0307ms total)
T138C 000:424 JLINK_IsHalted()  returns TRUE (0000ms, 0307ms total)
T138C 000:424 JLINK_ReadMemU32(0xE000EDF0, 0x0001 Items, ...) -- CPU_ReadMem(4 bytes @ 0xE000EDF0) - Data: 03 00 03 00  returns 0x01 (0000ms, 0307ms total)
T138C 000:424 JLINK_WriteU32(0xE000EDF0, 0xA05F0003) -- CPU_WriteMem(4 bytes @ 0xE000EDF0)  returns 0x00 (0001ms, 0308ms total)
T138C 000:425 JLINK_WriteU32(0xE000EDFC, 0x01000000) -- CPU_WriteMem(4 bytes @ 0xE000EDFC)  returns 0x00 (0001ms, 0309ms total)
T138C 000:445 JLINK_GetHWStatus(...)  returns 0x00 (0002ms, 0311ms total)
T138C 000:463 JLINK_GetNumBPUnits(Type = 0xFFFFFF00)  returns 0x06 (0000ms, 0311ms total)
T138C 000:463 JLINK_GetNumBPUnits(Type = 0xF0)  returns 0x2000 (0000ms, 0311ms total)
T138C 000:463 JLINK_GetNumWPUnits()  returns 0x04 (0000ms, 0311ms total)
T138C 000:483 JLINK_GetSpeed()  returns 0x7D0 (0000ms, 0311ms total)
T138C 000:491 JLINK_ReadMemU32(0xE000E004, 0x0001 Items, ...) -- CPU_ReadMem(4 bytes @ 0xE000E004) - Data: 02 00 00 00  returns 0x01 (0002ms, 0313ms total)
T138C 000:493 JLINK_ReadMemU32(0xE000E004, 0x0001 Items, ...) -- CPU_ReadMem(4 bytes @ 0xE000E004) - Data: 02 00 00 00  returns 0x01 (0001ms, 0314ms total)
T138C 000:494 JLINK_WriteMem(0xE0001000, 0x001C Bytes, ...) - Data: 01 00 00 00 00 00 00 00 00 00 00 00 00 00 00 00 ... -- CPU_WriteMem(28 bytes @ 0xE0001000)  returns 0x1C (0003ms, 0317ms total)
T138C 000:497 JLINK_ReadMem (0xE0001000, 0x001C Bytes, ...) -- CPU_ReadMem(28 bytes @ 0xE0001000) - Data: 01 00 00 40 00 00 00 00 00 00 00 00 00 00 00 00 ...  returns 0x00 (0002ms, 0319ms total)
T138C 000:499 JLINK_Halt()  returns 0x00 (0000ms, 0319ms total)
T138C 000:499 JLINK_IsHalted()  returns TRUE (0000ms, 0319ms total)
T138C 000:503 JLINK_WriteMem(0x20000000, 0x0180 Bytes, ...) - Data: 00 BE 0A E0 0D 78 2D 06 68 40 08 24 40 00 00 D3 ... -- CPU_WriteMem(384 bytes @ 0x20000000)  returns 0x180 (0002ms, 0321ms total)
T138C 000:506 JLINK_WriteReg(R0, 0x08000000)  returns 0x00 (0000ms, 0321ms total)
T138C 000:506 JLINK_WriteReg(R1, 0x00989680)  returns 0x00 (0000ms, 0321ms total)
T138C 000:506 JLINK_WriteReg(R2, 0x00000001)  returns 0x00 (0000ms, 0321ms total)
T138C 000:506 JLINK_WriteReg(R3, 0x00000000)  returns 0x00 (0000ms, 0321ms total)
T138C 000:506 JLINK_WriteReg(R4, 0x00000000)  returns 0x00 (0000ms, 0321ms total)
T138C 000:506 JLINK_WriteReg(R5, 0x00000000)  returns 0x00 (0000ms, 0321ms total)
T138C 000:506 JLINK_WriteReg(R6, 0x00000000)  returns 0x00 (0000ms, 0321ms total)
T138C 000:506 JLINK_WriteReg(R7, 0x00000000)  returns 0x00 (0000ms, 0321ms total)
T138C 000:506 JLINK_WriteReg(R8, 0x00000000)  returns 0x00 (0000ms, 0321ms total)
T138C 000:506 JLINK_WriteReg(R9, 0x2000017C)  returns 0x00 (0000ms, 0321ms total)
T138C 000:506 JLINK_WriteReg(R10, 0x00000000)  returns 0x00 (0000ms, 0321ms total)
T138C 000:506 JLINK_WriteReg(R11, 0x00000000)  returns 0x00 (0000ms, 0321ms total)
T138C 000:506 JLINK_WriteReg(R12, 0x00000000)  returns 0x00 (0000ms, 0321ms total)
T138C 000:506 JLINK_WriteReg(R13 (SP), 0x20001000)  returns 0x00 (0000ms, 0321ms total)
T138C 000:506 JLINK_WriteReg(R14, 0x20000001)  returns 0x00 (0000ms, 0321ms total)
T138C 000:506 JLINK_WriteReg(R15 (PC), 0x20000054)  returns 0x00 (0000ms, 0321ms total)
T138C 000:506 JLINK_WriteReg(XPSR, 0x01000000)  returns 0x00 (0000ms, 0321ms total)
T138C 000:506 JLINK_WriteReg(MSP, 0x20001000)  returns 0x00 (0000ms, 0321ms total)
T138C 000:506 JLINK_WriteReg(PSP, 0x20001000)  returns 0x00 (0000ms, 0321ms total)
T138C 000:506 JLINK_WriteReg(CFBP, 0x00000000)  returns 0x00 (0000ms, 0321ms total)
T138C 000:506 JLINK_SetBPEx(Addr = 0x20000000, Type = 0xFFFFFFF2) -- CPU_ReadMem(2 bytes @ 0x20000000)  returns 0x00000001 (0001ms, 0322ms total)
T138C 000:507 JLINK_Go() -- CPU_WriteMem(2 bytes @ 0x20000000) -- CPU_ReadMem(4 bytes @ 0xE0001000) -- CPU_WriteMem(4 bytes @ 0xE0002008) -- CPU_WriteMem(4 bytes @ 0xE000200C) -- CPU_WriteMem(4 bytes @ 0xE0002010) -- CPU_WriteMem(4 bytes @ 0xE0002014) -- CPU_WriteMem(4 bytes @ 0xE0002018) -- CPU_WriteMem(4 bytes @ 0xE000201C) -- CPU_WriteMem(4 bytes @ 0xE0001004) (0007ms, 0329ms total)
T138C 000:514 JLINK_IsHalted() -- CPU_ReadMem(2 bytes @ 0x20000000)  returns TRUE (0005ms, 0334ms total)
T138C 000:519 JLINK_ReadReg(R15 (PC))  returns 0x20000000 (0000ms, 0329ms total)
T138C 000:519 JLINK_ClrBPEx(BPHandle = 0x00000001)  returns 0x00 (0000ms, 0329ms total)
T138C 000:519 JLINK_ReadReg(R0)  returns 0x00000000 (0000ms, 0329ms total)
T138C 000:519 JLINK_WriteReg(R0, 0x08000000)  returns 0x00 (0000ms, 0329ms total)
T138C 000:519 JLINK_WriteReg(R1, 0x00004000)  returns 0x00 (0000ms, 0329ms total)
T138C 000:519 JLINK_WriteReg(R2, 0x000000FF)  returns 0x00 (0000ms, 0329ms total)
T138C 000:519 JLINK_WriteReg(R3, 0x00000000)  returns 0x00 (0000ms, 0329ms total)
T138C 000:519 JLINK_WriteReg(R4, 0x00000000)  returns 0x00 (0000ms, 0329ms total)
T138C 000:519 JLINK_WriteReg(R5, 0x00000000)  returns 0x00 (0000ms, 0329ms total)
T138C 000:519 JLINK_WriteReg(R6, 0x00000000)  returns 0x00 (0000ms, 0329ms total)
T138C 000:519 JLINK_WriteReg(R7, 0x00000000)  returns 0x00 (0000ms, 0329ms total)
T138C 000:519 JLINK_WriteReg(R8, 0x00000000)  returns 0x00 (0000ms, 0329ms total)
T138C 000:519 JLINK_WriteReg(R9, 0x2000017C)  returns 0x00 (0000ms, 0329ms total)
T138C 000:519 JLINK_WriteReg(R10, 0x00000000)  returns 0x00 (0000ms, 0329ms total)
T138C 000:519 JLINK_WriteReg(R11, 0x00000000)  returns 0x00 (0000ms, 0329ms total)
T138C 000:519 JLINK_WriteReg(R12, 0x00000000)  returns 0x00 (0000ms, 0329ms total)
T138C 000:519 JLINK_WriteReg(R13 (SP), 0x20001000)  returns 0x00 (0000ms, 0329ms total)
T138C 000:519 JLINK_WriteReg(R14, 0x20000001)  returns 0x00 (0000ms, 0329ms total)
T138C 000:519 JLINK_WriteReg(R15 (PC), 0x20000020)  returns 0x00 (0000ms, 0329ms total)
T138C 000:519 JLINK_WriteReg(XPSR, 0x01000000)  returns 0x00 (0000ms, 0329ms total)
T138C 000:519 JLINK_WriteReg(MSP, 0x20001000)  returns 0x00 (0000ms, 0329ms total)
T138C 000:519 JLINK_WriteReg(PSP, 0x20001000)  returns 0x00 (0000ms, 0329ms total)
T138C 000:519 JLINK_WriteReg(CFBP, 0x00000000)  returns 0x00 (0000ms, 0329ms total)
T138C 000:519 JLINK_SetBPEx(Addr = 0x20000000, Type = 0xFFFFFFF2)  returns 0x00000002 (0000ms, 0329ms total)
T138C 000:519 JLINK_Go() -- CPU_ReadMem(4 bytes @ 0xE0001000) (0004ms, 0333ms total)
T138C 000:523 JLINK_IsHalted()  returns FALSE (0001ms, 0334ms total)
T138C 000:602 JLINK_IsHalted() -- CPU_ReadMem(2 bytes @ 0x20000000)  returns TRUE (0006ms, 0339ms total)
T138C 000:608 JLINK_ReadReg(R15 (PC))  returns 0x20000000 (0000ms, 0333ms total)
T138C 000:608 JLINK_ClrBPEx(BPHandle = 0x00000002)  returns 0x00 (0000ms, 0333ms total)
T138C 000:608 JLINK_ReadReg(R0)  returns 0x00000000 (0000ms, 0333ms total)
T138C 000:611 JLINK_WriteReg(R0, 0x08004000)  returns 0x00 (0000ms, 0333ms total)
T138C 000:611 JLINK_WriteReg(R1, 0x00004000)  returns 0x00 (0000ms, 0333ms total)
T138C 000:611 JLINK_WriteReg(R2, 0x000000FF)  returns 0x00 (0000ms, 0333ms total)
T138C 000:611 JLINK_WriteReg(R3, 0x00000000)  returns 0x00 (0000ms, 0333ms total)
T138C 000:611 JLINK_WriteReg(R4, 0x00000000)  returns 0x00 (0000ms, 0333ms total)
T138C 000:611 JLINK_WriteReg(R5, 0x00000000)  returns 0x00 (0000ms, 0333ms total)
T138C 000:611 JLINK_WriteReg(R6, 0x00000000)  returns 0x00 (0000ms, 0333ms total)
T138C 000:611 JLINK_WriteReg(R7, 0x00000000)  returns 0x00 (0000ms, 0333ms total)
T138C 000:611 JLINK_WriteReg(R8, 0x00000000)  returns 0x00 (0000ms, 0333ms total)
T138C 000:611 JLINK_WriteReg(R9, 0x2000017C)  returns 0x00 (0000ms, 0333ms total)
T138C 000:611 JLINK_WriteReg(R10, 0x00000000)  returns 0x00 (0000ms, 0333ms total)
T138C 000:611 JLINK_WriteReg(R11, 0x00000000)  returns 0x00 (0000ms, 0333ms total)
T138C 000:611 JLINK_WriteReg(R12, 0x00000000)  returns 0x00 (0000ms, 0333ms total)
T138C 000:611 JLINK_WriteReg(R13 (SP), 0x20001000)  returns 0x00 (0000ms, 0333ms total)
T138C 000:611 JLINK_WriteReg(R14, 0x20000001)  returns 0x00 (0000ms, 0333ms total)
T138C 000:611 JLINK_WriteReg(R15 (PC), 0x20000020)  returns 0x00 (0000ms, 0333ms total)
T138C 000:611 JLINK_WriteReg(XPSR, 0x01000000)  returns 0x00 (0000ms, 0333ms total)
T138C 000:611 JLINK_WriteReg(MSP, 0x20001000)  returns 0x00 (0000ms, 0333ms total)
T138C 000:611 JLINK_WriteReg(PSP, 0x20001000)  returns 0x00 (0000ms, 0333ms total)
T138C 000:611 JLINK_WriteReg(CFBP, 0x00000000)  returns 0x00 (0000ms, 0333ms total)
T138C 000:611 JLINK_SetBPEx(Addr = 0x20000000, Type = 0xFFFFFFF2)  returns 0x00000003 (0000ms, 0333ms total)
T138C 000:611 JLINK_Go() -- CPU_ReadMem(4 bytes @ 0xE0001000) (0003ms, 0336ms total)
T138C 000:614 JLINK_IsHalted()  returns FALSE (0000ms, 0336ms total)
T138C 000:620 JLINK_IsHalted()  returns FALSE (0001ms, 0337ms total)
T138C 000:623 JLINK_IsHalted()  returns FALSE (0001ms, 0337ms total)
T138C 000:628 JLINK_IsHalted() -- CPU_ReadMem(2 bytes @ 0x20000000)  returns TRUE (0005ms, 0341ms total)
T138C 000:633 JLINK_ReadReg(R15 (PC))  returns 0x20000000 (0000ms, 0336ms total)
T138C 000:633 JLINK_ClrBPEx(BPHandle = 0x00000003)  returns 0x00 (0000ms, 0336ms total)
T138C 000:633 JLINK_ReadReg(R0)  returns 0x00000000 (0000ms, 0336ms total)
T138C 000:634 JLINK_WriteReg(R0, 0x08008000)  returns 0x00 (0000ms, 0336ms total)
T138C 000:634 JLINK_WriteReg(R1, 0x00004000)  returns 0x00 (0000ms, 0336ms total)
T138C 000:634 JLINK_WriteReg(R2, 0x000000FF)  returns 0x00 (0000ms, 0336ms total)
T138C 000:634 JLINK_WriteReg(R3, 0x00000000)  returns 0x00 (0000ms, 0336ms total)
T138C 000:634 JLINK_WriteReg(R4, 0x00000000)  returns 0x00 (0000ms, 0336ms total)
T138C 000:634 JLINK_WriteReg(R5, 0x00000000)  returns 0x00 (0000ms, 0336ms total)
T138C 000:634 JLINK_WriteReg(R6, 0x00000000)  returns 0x00 (0000ms, 0336ms total)
T138C 000:634 JLINK_WriteReg(R7, 0x00000000)  returns 0x00 (0000ms, 0336ms total)
T138C 000:634 JLINK_WriteReg(R8, 0x00000000)  returns 0x00 (0000ms, 0336ms total)
T138C 000:634 JLINK_WriteReg(R9, 0x2000017C)  returns 0x00 (0000ms, 0336ms total)
T138C 000:634 JLINK_WriteReg(R10, 0x00000000)  returns 0x00 (0000ms, 0336ms total)
T138C 000:634 JLINK_WriteReg(R11, 0x00000000)  returns 0x00 (0000ms, 0336ms total)
T138C 000:634 JLINK_WriteReg(R12, 0x00000000)  returns 0x00 (0000ms, 0336ms total)
T138C 000:634 JLINK_WriteReg(R13 (SP), 0x20001000)  returns 0x00 (0000ms, 0336ms total)
T138C 000:634 JLINK_WriteReg(R14, 0x20000001)  returns 0x00 (0000ms, 0336ms total)
T138C 000:634 JLINK_WriteReg(R15 (PC), 0x20000020)  returns 0x00 (0000ms, 0336ms total)
T138C 000:634 JLINK_WriteReg(XPSR, 0x01000000)  returns 0x00 (0000ms, 0336ms total)
T138C 000:634 JLINK_WriteReg(MSP, 0x20001000)  returns 0x00 (0000ms, 0336ms total)
T138C 000:634 JLINK_WriteReg(PSP, 0x20001000)  returns 0x00 (0000ms, 0336ms total)
T138C 000:634 JLINK_WriteReg(CFBP, 0x00000000)  returns 0x00 (0000ms, 0336ms total)
T138C 000:634 JLINK_SetBPEx(Addr = 0x20000000, Type = 0xFFFFFFF2)  returns 0x00000004 (0000ms, 0336ms total)
T138C 000:634 JLINK_Go() -- CPU_ReadMem(4 bytes @ 0xE0001000) (0004ms, 0340ms total)
T138C 000:638 JLINK_IsHalted()  returns FALSE (0000ms, 0340ms total)
T138C 000:643 JLINK_IsHalted()  returns FALSE (0001ms, 0341ms total)
T138C 000:646 JLINK_IsHalted()  returns FALSE (0001ms, 0341ms total)
T138C 000:650 JLINK_IsHalted()  returns FALSE (0000ms, 0340ms total)
T138C 000:652 JLINK_IsHalted() -- CPU_ReadMem(2 bytes @ 0x20000000)  returns TRUE (0005ms, 0345ms total)
T138C 000:657 JLINK_ReadReg(R15 (PC))  returns 0x20000000 (0000ms, 0340ms total)
T138C 000:657 JLINK_ClrBPEx(BPHandle = 0x00000004)  returns 0x00 (0000ms, 0340ms total)
T138C 000:657 JLINK_ReadReg(R0)  returns 0x00000000 (0000ms, 0340ms total)
T138C 000:658 JLINK_WriteReg(R0, 0x00000001)  returns 0x00 (0000ms, 0340ms total)
T138C 000:658 JLINK_WriteReg(R1, 0x00004000)  returns 0x00 (0000ms, 0340ms total)
T138C 000:658 JLINK_WriteReg(R2, 0x000000FF)  returns 0x00 (0000ms, 0340ms total)
T138C 000:658 JLINK_WriteReg(R3, 0x00000000)  returns 0x00 (0000ms, 0340ms total)
T138C 000:658 JLINK_WriteReg(R4, 0x00000000)  returns 0x00 (0000ms, 0340ms total)
T138C 000:658 JLINK_WriteReg(R5, 0x00000000)  returns 0x00 (0000ms, 0340ms total)
T138C 000:658 JLINK_WriteReg(R6, 0x00000000)  returns 0x00 (0000ms, 0340ms total)
T138C 000:658 JLINK_WriteReg(R7, 0x00000000)  returns 0x00 (0000ms, 0340ms total)
T138C 000:658 JLINK_WriteReg(R8, 0x00000000)  returns 0x00 (0000ms, 0340ms total)
T138C 000:658 JLINK_WriteReg(R9, 0x2000017C)  returns 0x00 (0000ms, 0340ms total)
T138C 000:658 JLINK_WriteReg(R10, 0x00000000)  returns 0x00 (0000ms, 0340ms total)
T138C 000:658 JLINK_WriteReg(R11, 0x00000000)  returns 0x00 (0000ms, 0340ms total)
T138C 000:658 JLINK_WriteReg(R12, 0x00000000)  returns 0x00 (0000ms, 0340ms total)
T138C 000:658 JLINK_WriteReg(R13 (SP), 0x20001000)  returns 0x00 (0000ms, 0340ms total)
T138C 000:658 JLINK_WriteReg(R14, 0x20000001)  returns 0x00 (0000ms, 0340ms total)
T138C 000:658 JLINK_WriteReg(R15 (PC), 0x20000082)  returns 0x00 (0000ms, 0340ms total)
T138C 000:658 JLINK_WriteReg(XPSR, 0x01000000)  returns 0x00 (0000ms, 0340ms total)
T138C 000:658 JLINK_WriteReg(MSP, 0x20001000)  returns 0x00 (0000ms, 0340ms total)
T138C 000:658 JLINK_WriteReg(PSP, 0x20001000)  returns 0x00 (0000ms, 0340ms total)
T138C 000:658 JLINK_WriteReg(CFBP, 0x00000000)  returns 0x00 (0000ms, 0340ms total)
T138C 000:658 JLINK_SetBPEx(Addr = 0x20000000, Type = 0xFFFFFFF2)  returns 0x00000005 (0000ms, 0340ms total)
T138C 000:658 JLINK_Go() -- CPU_ReadMem(4 bytes @ 0xE0001000) (0003ms, 0343ms total)
T138C 000:661 JLINK_IsHalted() -- CPU_ReadMem(2 bytes @ 0x20000000)  returns TRUE (0005ms, 0348ms total)
T138C 000:666 JLINK_ReadReg(R15 (PC))  returns 0x20000000 (0000ms, 0343ms total)
T138C 000:666 JLINK_ClrBPEx(BPHandle = 0x00000005)  returns 0x00 (0000ms, 0343ms total)
T138C 000:666 JLINK_ReadReg(R0)  returns 0x00000000 (0000ms, 0343ms total)
T138C 000:728 JLINK_WriteMem(0x20000000, 0x0180 Bytes, ...) - Data: 00 BE 0A E0 0D 78 2D 06 68 40 08 24 40 00 00 D3 ... -- CPU_WriteMem(384 bytes @ 0x20000000)  returns 0x180 (0005ms, 0348ms total)
T138C 000:733 JLINK_WriteReg(R0, 0x08000000)  returns 0x00 (0000ms, 0348ms total)
T138C 000:733 JLINK_WriteReg(R1, 0x00989680)  returns 0x00 (0000ms, 0348ms total)
T138C 000:733 JLINK_WriteReg(R2, 0x00000002)  returns 0x00 (0000ms, 0348ms total)
T138C 000:733 JLINK_WriteReg(R3, 0x00000000)  returns 0x00 (0000ms, 0348ms total)
T138C 000:733 JLINK_WriteReg(R4, 0x00000000)  returns 0x00 (0000ms, 0348ms total)
T138C 000:733 JLINK_WriteReg(R5, 0x00000000)  returns 0x00 (0000ms, 0348ms total)
T138C 000:733 JLINK_WriteReg(R6, 0x00000000)  returns 0x00 (0000ms, 0348ms total)
T138C 000:733 JLINK_WriteReg(R7, 0x00000000)  returns 0x00 (0000ms, 0348ms total)
T138C 000:733 JLINK_WriteReg(R8, 0x00000000)  returns 0x00 (0000ms, 0348ms total)
T138C 000:733 JLINK_WriteReg(R9, 0x2000017C)  returns 0x00 (0000ms, 0348ms total)
T138C 000:733 JLINK_WriteReg(R10, 0x00000000)  returns 0x00 (0000ms, 0348ms total)
T138C 000:733 JLINK_WriteReg(R11, 0x00000000)  returns 0x00 (0000ms, 0348ms total)
T138C 000:733 JLINK_WriteReg(R12, 0x00000000)  returns 0x00 (0000ms, 0348ms total)
T138C 000:733 JLINK_WriteReg(R13 (SP), 0x20001000)  returns 0x00 (0000ms, 0348ms total)
T138C 000:733 JLINK_WriteReg(R14, 0x20000001)  returns 0x00 (0000ms, 0348ms total)
T138C 000:733 JLINK_WriteReg(R15 (PC), 0x20000054)  returns 0x00 (0000ms, 0348ms total)
T138C 000:733 JLINK_WriteReg(XPSR, 0x01000000)  returns 0x00 (0000ms, 0348ms total)
T138C 000:733 JLINK_WriteReg(MSP, 0x20001000)  returns 0x00 (0000ms, 0348ms total)
T138C 000:733 JLINK_WriteReg(PSP, 0x20001000)  returns 0x00 (0000ms, 0348ms total)
T138C 000:733 JLINK_WriteReg(CFBP, 0x00000000)  returns 0x00 (0000ms, 0348ms total)
T138C 000:733 JLINK_SetBPEx(Addr = 0x20000000, Type = 0xFFFFFFF2) -- CPU_ReadMem(2 bytes @ 0x20000000)  returns 0x00000006 (0002ms, 0350ms total)
T138C 000:735 JLINK_Go() -- CPU_WriteMem(2 bytes @ 0x20000000) -- CPU_ReadMem(4 bytes @ 0xE0001000) (0003ms, 0353ms total)
T138C 000:738 JLINK_IsHalted() -- CPU_ReadMem(2 bytes @ 0x20000000)  returns TRUE (0006ms, 0359ms total)
T138C 000:744 JLINK_ReadReg(R15 (PC))  returns 0x20000000 (0000ms, 0353ms total)
T138C 000:744 JLINK_ClrBPEx(BPHandle = 0x00000006)  returns 0x00 (0000ms, 0353ms total)
T138C 000:744 JLINK_ReadReg(R0)  returns 0x00000000 (0000ms, 0353ms total)
T138C 000:744 JLINK_WriteMem(0x20000180, 0x0400 Bytes, ...) - Data: 68 46 01 20 49 03 00 08 4D 40 00 08 6D 32 00 08 ... -- CPU_WriteMem(1024 bytes @ 0x20000180)  returns 0x400 (0007ms, 0360ms total)
T138C 000:751 JLINK_WriteReg(R0, 0x08000000)  returns 0x00 (0000ms, 0360ms total)
T138C 000:751 JLINK_WriteReg(R1, 0x00000400)  returns 0x00 (0000ms, 0360ms total)
T138C 000:751 JLINK_WriteReg(R2, 0x20000180)  returns 0x00 (0000ms, 0360ms total)
T138C 000:751 JLINK_WriteReg(R3, 0x00000000)  returns 0x00 (0000ms, 0360ms total)
T138C 000:751 JLINK_WriteReg(R4, 0x00000000)  returns 0x00 (0000ms, 0360ms total)
T138C 000:751 JLINK_WriteReg(R5, 0x00000000)  returns 0x00 (0000ms, 0360ms total)
T138C 000:751 JLINK_WriteReg(R6, 0x00000000)  returns 0x00 (0000ms, 0360ms total)
T138C 000:751 JLINK_WriteReg(R7, 0x00000000)  returns 0x00 (0000ms, 0360ms total)
T138C 000:751 JLINK_WriteReg(R8, 0x00000000)  returns 0x00 (0000ms, 0360ms total)
T138C 000:751 JLINK_WriteReg(R9, 0x2000017C)  returns 0x00 (0000ms, 0360ms total)
T138C 000:751 JLINK_WriteReg(R10, 0x00000000)  returns 0x00 (0000ms, 0360ms total)
T138C 000:751 JLINK_WriteReg(R11, 0x00000000)  returns 0x00 (0000ms, 0360ms total)
T138C 000:751 JLINK_WriteReg(R12, 0x00000000)  returns 0x00 (0000ms, 0360ms total)
T138C 000:751 JLINK_WriteReg(R13 (SP), 0x20001000)  returns 0x00 (0000ms, 0360ms total)
T138C 000:751 JLINK_WriteReg(R14, 0x20000001)  returns 0x00 (0000ms, 0360ms total)
T138C 000:751 JLINK_WriteReg(R15 (PC), 0x20000108)  returns 0x00 (0000ms, 0360ms total)
T138C 000:751 JLINK_WriteReg(XPSR, 0x01000000)  returns 0x00 (0000ms, 0360ms total)
T138C 000:751 JLINK_WriteReg(MSP, 0x20001000)  returns 0x00 (0000ms, 0360ms total)
T138C 000:751 JLINK_WriteReg(PSP, 0x20001000)  returns 0x00 (0000ms, 0360ms total)
T138C 000:751 JLINK_WriteReg(CFBP, 0x00000000)  returns 0x00 (0001ms, 0361ms total)
T138C 000:752 JLINK_SetBPEx(Addr = 0x20000000, Type = 0xFFFFFFF2)  returns 0x00000007 (0000ms, 0361ms total)
T138C 000:752 JLINK_Go() -- CPU_ReadMem(4 bytes @ 0xE0001000) (0002ms, 0363ms total)
T138C 000:754 JLINK_IsHalted()  returns FALSE (0002ms, 0365ms total)
T138C 000:767 JLINK_IsHalted() -- CPU_ReadMem(2 bytes @ 0x20000000)  returns TRUE (0004ms, 0367ms total)
T138C 000:771 JLINK_ReadReg(R15 (PC))  returns 0x20000000 (0000ms, 0363ms total)
T138C 000:771 JLINK_ClrBPEx(BPHandle = 0x00000007)  returns 0x00 (0000ms, 0363ms total)
T138C 000:771 JLINK_ReadReg(R0)  returns 0x00000000 (0000ms, 0363ms total)
T138C 000:771 JLINK_WriteMem(0x20000180, 0x0400 Bytes, ...) - Data: 07 FC 46 EA 0C 06 20 37 B6 FB F4 FC A7 EB 05 07 ... -- CPU_WriteMem(1024 bytes @ 0x20000180)  returns 0x400 (0009ms, 0372ms total)
T138C 000:780 JLINK_WriteReg(R0, 0x08000400)  returns 0x00 (0000ms, 0372ms total)
T138C 000:780 JLINK_WriteReg(R1, 0x00000400)  returns 0x00 (0000ms, 0372ms total)
T138C 000:780 JLINK_WriteReg(R2, 0x20000180)  returns 0x00 (0000ms, 0372ms total)
T138C 000:780 JLINK_WriteReg(R3, 0x00000000)  returns 0x00 (0000ms, 0372ms total)
T138C 000:780 JLINK_WriteReg(R4, 0x00000000)  returns 0x00 (0001ms, 0373ms total)
T138C 000:781 JLINK_WriteReg(R5, 0x00000000)  returns 0x00 (0000ms, 0373ms total)
T138C 000:781 JLINK_WriteReg(R6, 0x00000000)  returns 0x00 (0000ms, 0373ms total)
T138C 000:781 JLINK_WriteReg(R7, 0x00000000)  returns 0x00 (0000ms, 0373ms total)
T138C 000:781 JLINK_WriteReg(R8, 0x00000000)  returns 0x00 (0000ms, 0373ms total)
T138C 000:781 JLINK_WriteReg(R9, 0x2000017C)  returns 0x00 (0000ms, 0373ms total)
T138C 000:781 JLINK_WriteReg(R10, 0x00000000)  returns 0x00 (0000ms, 0373ms total)
T138C 000:781 JLINK_WriteReg(R11, 0x00000000)  returns 0x00 (0000ms, 0373ms total)
T138C 000:781 JLINK_WriteReg(R12, 0x00000000)  returns 0x00 (0000ms, 0373ms total)
T138C 000:781 JLINK_WriteReg(R13 (SP), 0x20001000)  returns 0x00 (0000ms, 0373ms total)
T138C 000:781 JLINK_WriteReg(R14, 0x20000001)  returns 0x00 (0000ms, 0373ms total)
T138C 000:781 JLINK_WriteReg(R15 (PC), 0x20000108)  returns 0x00 (0000ms, 0373ms total)
T138C 000:781 JLINK_WriteReg(XPSR, 0x01000000)  returns 0x00 (0000ms, 0373ms total)
T138C 000:781 JLINK_WriteReg(MSP, 0x20001000)  returns 0x00 (0000ms, 0373ms total)
T138C 000:781 JLINK_WriteReg(PSP, 0x20001000)  returns 0x00 (0000ms, 0373ms total)
T138C 000:781 JLINK_WriteReg(CFBP, 0x00000000)  returns 0x00 (0000ms, 0373ms total)
T138C 000:781 JLINK_SetBPEx(Addr = 0x20000000, Type = 0xFFFFFFF2)  returns 0x00000008 (0000ms, 0373ms total)
T138C 000:781 JLINK_Go() -- CPU_ReadMem(4 bytes @ 0xE0001000) (0006ms, 0379ms total)
T138C 000:787 JLINK_IsHalted()  returns FALSE (0001ms, 0380ms total)
T138C 000:790 JLINK_IsHalted()  returns FALSE (0000ms, 0379ms total)
T138C 000:792 JLINK_IsHalted() -- CPU_ReadMem(2 bytes @ 0x20000000)  returns TRUE (0005ms, 0384ms total)
T138C 000:797 JLINK_ReadReg(R15 (PC))  returns 0x20000000 (0000ms, 0379ms total)
T138C 000:797 JLINK_ClrBPEx(BPHandle = 0x00000008)  returns 0x00 (0000ms, 0379ms total)
T138C 000:797 JLINK_ReadReg(R0)  returns 0x00000000 (0000ms, 0379ms total)
T138C 000:806 JLINK_WriteMem(0x20000180, 0x0400 Bytes, ...) - Data: 00 20 70 BD 10 F8 01 3B 11 F8 01 4B 63 B1 A3 42 ... -- CPU_WriteMem(1024 bytes @ 0x20000180)  returns 0x400 (0008ms, 0387ms total)
T138C 000:814 JLINK_WriteReg(R0, 0x08000800)  returns 0x00 (0000ms, 0387ms total)
T138C 000:814 JLINK_WriteReg(R1, 0x00000400)  returns 0x00 (0000ms, 0387ms total)
T138C 000:814 JLINK_WriteReg(R2, 0x20000180)  returns 0x00 (0000ms, 0387ms total)
T138C 000:814 JLINK_WriteReg(R3, 0x00000000)  returns 0x00 (0000ms, 0387ms total)
T138C 000:814 JLINK_WriteReg(R4, 0x00000000)  returns 0x00 (0000ms, 0387ms total)
T138C 000:814 JLINK_WriteReg(R5, 0x00000000)  returns 0x00 (0000ms, 0387ms total)
T138C 000:814 JLINK_WriteReg(R6, 0x00000000)  returns 0x00 (0000ms, 0387ms total)
T138C 000:814 JLINK_WriteReg(R7, 0x00000000)  returns 0x00 (0000ms, 0387ms total)
T138C 000:814 JLINK_WriteReg(R8, 0x00000000)  returns 0x00 (0000ms, 0387ms total)
T138C 000:814 JLINK_WriteReg(R9, 0x2000017C)  returns 0x00 (0000ms, 0387ms total)
T138C 000:814 JLINK_WriteReg(R10, 0x00000000)  returns 0x00 (0000ms, 0387ms total)
T138C 000:815 JLINK_WriteReg(R11, 0x00000000)  returns 0x00 (0000ms, 0387ms total)
T138C 000:815 JLINK_WriteReg(R12, 0x00000000)  returns 0x00 (0000ms, 0387ms total)
T138C 000:815 JLINK_WriteReg(R13 (SP), 0x20001000)  returns 0x00 (0000ms, 0387ms total)
T138C 000:815 JLINK_WriteReg(R14, 0x20000001)  returns 0x00 (0000ms, 0387ms total)
T138C 000:815 JLINK_WriteReg(R15 (PC), 0x20000108)  returns 0x00 (0000ms, 0387ms total)
T138C 000:815 JLINK_WriteReg(XPSR, 0x01000000)  returns 0x00 (0000ms, 0387ms total)
T138C 000:815 JLINK_WriteReg(MSP, 0x20001000)  returns 0x00 (0000ms, 0387ms total)
T138C 000:815 JLINK_WriteReg(PSP, 0x20001000)  returns 0x00 (0000ms, 0387ms total)
T138C 000:815 JLINK_WriteReg(CFBP, 0x00000000)  returns 0x00 (0000ms, 0387ms total)
T138C 000:815 JLINK_SetBPEx(Addr = 0x20000000, Type = 0xFFFFFFF2)  returns 0x00000009 (0001ms, 0388ms total)
T138C 000:816 JLINK_Go() -- CPU_ReadMem(4 bytes @ 0xE0001000) (0004ms, 0392ms total)
T138C 000:820 JLINK_IsHalted()  returns FALSE (0001ms, 0393ms total)
T138C 000:836 JLINK_IsHalted() -- CPU_ReadMem(2 bytes @ 0x20000000)  returns TRUE (0004ms, 0396ms total)
T138C 000:840 JLINK_ReadReg(R15 (PC))  returns 0x20000000 (0000ms, 0392ms total)
T138C 000:840 JLINK_ClrBPEx(BPHandle = 0x00000009)  returns 0x00 (0000ms, 0392ms total)
T138C 000:840 JLINK_ReadReg(R0)  returns 0x00000000 (0000ms, 0392ms total)
T138C 000:841 JLINK_WriteMem(0x20000180, 0x0400 Bytes, ...) - Data: 30 32 62 55 6D 1C 50 EA 01 02 F5 D1 08 43 02 D0 ... -- CPU_WriteMem(1024 bytes @ 0x20000180)  returns 0x400 (0008ms, 0400ms total)
T138C 000:849 JLINK_WriteReg(R0, 0x08000C00)  returns 0x00 (0000ms, 0400ms total)
T138C 000:849 JLINK_WriteReg(R1, 0x00000400)  returns 0x00 (0000ms, 0400ms total)
T138C 000:849 JLINK_WriteReg(R2, 0x20000180)  returns 0x00 (0000ms, 0400ms total)
T138C 000:849 JLINK_WriteReg(R3, 0x00000000)  returns 0x00 (0000ms, 0400ms total)
T138C 000:849 JLINK_WriteReg(R4, 0x00000000)  returns 0x00 (0000ms, 0400ms total)
T138C 000:849 JLINK_WriteReg(R5, 0x00000000)  returns 0x00 (0000ms, 0400ms total)
T138C 000:849 JLINK_WriteReg(R6, 0x00000000)  returns 0x00 (0000ms, 0400ms total)
T138C 000:849 JLINK_WriteReg(R7, 0x00000000)  returns 0x00 (0000ms, 0400ms total)
T138C 000:849 JLINK_WriteReg(R8, 0x00000000)  returns 0x00 (0000ms, 0400ms total)
T138C 000:849 JLINK_WriteReg(R9, 0x2000017C)  returns 0x00 (0000ms, 0400ms total)
T138C 000:849 JLINK_WriteReg(R10, 0x00000000)  returns 0x00 (0000ms, 0400ms total)
T138C 000:849 JLINK_WriteReg(R11, 0x00000000)  returns 0x00 (0000ms, 0400ms total)
T138C 000:849 JLINK_WriteReg(R12, 0x00000000)  returns 0x00 (0000ms, 0400ms total)
T138C 000:849 JLINK_WriteReg(R13 (SP), 0x20001000)  returns 0x00 (0000ms, 0400ms total)
T138C 000:849 JLINK_WriteReg(R14, 0x20000001)  returns 0x00 (0000ms, 0400ms total)
T138C 000:849 JLINK_WriteReg(R15 (PC), 0x20000108)  returns 0x00 (0001ms, 0401ms total)
T138C 000:850 JLINK_WriteReg(XPSR, 0x01000000)  returns 0x00 (0000ms, 0401ms total)
T138C 000:850 JLINK_WriteReg(MSP, 0x20001000)  returns 0x00 (0000ms, 0401ms total)
T138C 000:850 JLINK_WriteReg(PSP, 0x20001000)  returns 0x00 (0000ms, 0401ms total)
T138C 000:850 JLINK_WriteReg(CFBP, 0x00000000)  returns 0x00 (0000ms, 0401ms total)
T138C 000:850 JLINK_SetBPEx(Addr = 0x20000000, Type = 0xFFFFFFF2)  returns 0x0000000A (0000ms, 0401ms total)
T138C 000:850 JLINK_Go() -- CPU_ReadMem(4 bytes @ 0xE0001000) (0003ms, 0404ms total)
T138C 000:853 JLINK_IsHalted()  returns FALSE (0000ms, 0404ms total)
T138C 000:857 JLINK_IsHalted() -- CPU_ReadMem(2 bytes @ 0x20000000)  returns TRUE (0005ms, 0409ms total)
T138C 000:862 JLINK_ReadReg(R15 (PC))  returns 0x20000000 (0000ms, 0404ms total)
T138C 000:862 JLINK_ClrBPEx(BPHandle = 0x0000000A)  returns 0x00 (0000ms, 0404ms total)
T138C 000:862 JLINK_ReadReg(R0)  returns 0x00000000 (0000ms, 0404ms total)
T138C 000:863 JLINK_WriteMem(0x20000180, 0x0400 Bytes, ...) - Data: D4 E9 01 21 38 46 90 47 20 6A 40 1C 20 62 C0 1C ... -- CPU_WriteMem(1024 bytes @ 0x20000180)  returns 0x400 (0008ms, 0412ms total)
T138C 000:871 JLINK_WriteReg(R0, 0x08001000)  returns 0x00 (0000ms, 0412ms total)
T138C 000:871 JLINK_WriteReg(R1, 0x00000400)  returns 0x00 (0000ms, 0412ms total)
T138C 000:871 JLINK_WriteReg(R2, 0x20000180)  returns 0x00 (0000ms, 0412ms total)
T138C 000:871 JLINK_WriteReg(R3, 0x00000000)  returns 0x00 (0000ms, 0412ms total)
T138C 000:871 JLINK_WriteReg(R4, 0x00000000)  returns 0x00 (0000ms, 0412ms total)
T138C 000:871 JLINK_WriteReg(R5, 0x00000000)  returns 0x00 (0000ms, 0412ms total)
T138C 000:871 JLINK_WriteReg(R6, 0x00000000)  returns 0x00 (0000ms, 0412ms total)
T138C 000:871 JLINK_WriteReg(R7, 0x00000000)  returns 0x00 (0000ms, 0412ms total)
T138C 000:871 JLINK_WriteReg(R8, 0x00000000)  returns 0x00 (0000ms, 0412ms total)
T138C 000:871 JLINK_WriteReg(R9, 0x2000017C)  returns 0x00 (0000ms, 0412ms total)
T138C 000:871 JLINK_WriteReg(R10, 0x00000000)  returns 0x00 (0000ms, 0412ms total)
T138C 000:871 JLINK_WriteReg(R11, 0x00000000)  returns 0x00 (0000ms, 0412ms total)
T138C 000:871 JLINK_WriteReg(R12, 0x00000000)  returns 0x00 (0000ms, 0412ms total)
T138C 000:871 JLINK_WriteReg(R13 (SP), 0x20001000)  returns 0x00 (0000ms, 0412ms total)
T138C 000:871 JLINK_WriteReg(R14, 0x20000001)  returns 0x00 (0000ms, 0412ms total)
T138C 000:871 JLINK_WriteReg(R15 (PC), 0x20000108)  returns 0x00 (0000ms, 0412ms total)
T138C 000:871 JLINK_WriteReg(XPSR, 0x01000000)  returns 0x00 (0000ms, 0412ms total)
T138C 000:871 JLINK_WriteReg(MSP, 0x20001000)  returns 0x00 (0000ms, 0412ms total)
T138C 000:871 JLINK_WriteReg(PSP, 0x20001000)  returns 0x00 (0000ms, 0412ms total)
T138C 000:871 JLINK_WriteReg(CFBP, 0x00000000)  returns 0x00 (0000ms, 0412ms total)
T138C 000:871 JLINK_SetBPEx(Addr = 0x20000000, Type = 0xFFFFFFF2)  returns 0x0000000B (0000ms, 0412ms total)
T138C 000:871 JLINK_Go() -- CPU_ReadMem(4 bytes @ 0xE0001000) (0004ms, 0416ms total)
T138C 000:875 JLINK_IsHalted()  returns FALSE (0000ms, 0416ms total)
T138C 000:880 JLINK_IsHalted() -- CPU_ReadMem(2 bytes @ 0x20000000)  returns TRUE (0006ms, 0422ms total)
T138C 000:886 JLINK_ReadReg(R15 (PC))  returns 0x20000000 (0000ms, 0416ms total)
T138C 000:886 JLINK_ClrBPEx(BPHandle = 0x0000000B)  returns 0x00 (0000ms, 0416ms total)
T138C 000:886 JLINK_ReadReg(R0)  returns 0x00000000 (0000ms, 0416ms total)
T138C 000:887 JLINK_WriteMem(0x20000180, 0x0400 Bytes, ...) - Data: 57 72 0C FB 08 F7 34 BF A2 EB C7 02 B2 EB C7 02 ... -- CPU_WriteMem(1024 bytes @ 0x20000180)  returns 0x400 (0008ms, 0424ms total)
T138C 000:895 JLINK_WriteReg(R0, 0x08001400)  returns 0x00 (0000ms, 0424ms total)
T138C 000:895 JLINK_WriteReg(R1, 0x00000400)  returns 0x00 (0000ms, 0424ms total)
T138C 000:895 JLINK_WriteReg(R2, 0x20000180)  returns 0x00 (0000ms, 0424ms total)
T138C 000:895 JLINK_WriteReg(R3, 0x00000000)  returns 0x00 (0000ms, 0424ms total)
T138C 000:895 JLINK_WriteReg(R4, 0x00000000)  returns 0x00 (0000ms, 0424ms total)
T138C 000:895 JLINK_WriteReg(R5, 0x00000000)  returns 0x00 (0000ms, 0424ms total)
T138C 000:895 JLINK_WriteReg(R6, 0x00000000)  returns 0x00 (0000ms, 0424ms total)
T138C 000:895 JLINK_WriteReg(R7, 0x00000000)  returns 0x00 (0000ms, 0424ms total)
T138C 000:895 JLINK_WriteReg(R8, 0x00000000)  returns 0x00 (0000ms, 0424ms total)
T138C 000:895 JLINK_WriteReg(R9, 0x2000017C)  returns 0x00 (0000ms, 0424ms total)
T138C 000:895 JLINK_WriteReg(R10, 0x00000000)  returns 0x00 (0000ms, 0424ms total)
T138C 000:895 JLINK_WriteReg(R11, 0x00000000)  returns 0x00 (0000ms, 0424ms total)
T138C 000:895 JLINK_WriteReg(R12, 0x00000000)  returns 0x00 (0000ms, 0424ms total)
T138C 000:895 JLINK_WriteReg(R13 (SP), 0x20001000)  returns 0x00 (0000ms, 0424ms total)
T138C 000:895 JLINK_WriteReg(R14, 0x20000001)  returns 0x00 (0000ms, 0424ms total)
T138C 000:895 JLINK_WriteReg(R15 (PC), 0x20000108)  returns 0x00 (0000ms, 0424ms total)
T138C 000:895 JLINK_WriteReg(XPSR, 0x01000000)  returns 0x00 (0000ms, 0424ms total)
T138C 000:895 JLINK_WriteReg(MSP, 0x20001000)  returns 0x00 (0000ms, 0424ms total)
T138C 000:895 JLINK_WriteReg(PSP, 0x20001000)  returns 0x00 (0000ms, 0424ms total)
T138C 000:895 JLINK_WriteReg(CFBP, 0x00000000)  returns 0x00 (0000ms, 0424ms total)
T138C 000:895 JLINK_SetBPEx(Addr = 0x20000000, Type = 0xFFFFFFF2)  returns 0x0000000C (0000ms, 0424ms total)
T138C 000:896 JLINK_Go() -- CPU_ReadMem(4 bytes @ 0xE0001000) (0003ms, 0428ms total)
T138C 000:899 JLINK_IsHalted()  returns FALSE (0000ms, 0428ms total)
T138C 000:903 JLINK_IsHalted() -- CPU_ReadMem(2 bytes @ 0x20000000)  returns TRUE (0005ms, 0433ms total)
T138C 000:908 JLINK_ReadReg(R15 (PC))  returns 0x20000000 (0000ms, 0428ms total)
T138C 000:908 JLINK_ClrBPEx(BPHandle = 0x0000000C)  returns 0x00 (0000ms, 0428ms total)
T138C 000:908 JLINK_ReadReg(R0)  returns 0x00000000 (0000ms, 0428ms total)
T138C 000:908 JLINK_WriteMem(0x20000180, 0x0400 Bytes, ...) - Data: 11 EB 0C 41 44 EB 1C 44 22 EA 07 4C 05 FB 07 F2 ... -- CPU_WriteMem(1024 bytes @ 0x20000180)  returns 0x400 (0009ms, 0437ms total)
T138C 000:917 JLINK_WriteReg(R0, 0x08001800)  returns 0x00 (0000ms, 0437ms total)
T138C 000:917 JLINK_WriteReg(R1, 0x00000400)  returns 0x00 (0000ms, 0437ms total)
T138C 000:917 JLINK_WriteReg(R2, 0x20000180)  returns 0x00 (0000ms, 0437ms total)
T138C 000:917 JLINK_WriteReg(R3, 0x00000000)  returns 0x00 (0000ms, 0437ms total)
T138C 000:917 JLINK_WriteReg(R4, 0x00000000)  returns 0x00 (0000ms, 0437ms total)
T138C 000:917 JLINK_WriteReg(R5, 0x00000000)  returns 0x00 (0000ms, 0437ms total)
T138C 000:917 JLINK_WriteReg(R6, 0x00000000)  returns 0x00 (0000ms, 0437ms total)
T138C 000:917 JLINK_WriteReg(R7, 0x00000000)  returns 0x00 (0000ms, 0437ms total)
T138C 000:917 JLINK_WriteReg(R8, 0x00000000)  returns 0x00 (0000ms, 0437ms total)
T138C 000:917 JLINK_WriteReg(R9, 0x2000017C)  returns 0x00 (0000ms, 0437ms total)
T138C 000:917 JLINK_WriteReg(R10, 0x00000000)  returns 0x00 (0000ms, 0437ms total)
T138C 000:917 JLINK_WriteReg(R11, 0x00000000)  returns 0x00 (0000ms, 0437ms total)
T138C 000:917 JLINK_WriteReg(R12, 0x00000000)  returns 0x00 (0000ms, 0437ms total)
T138C 000:917 JLINK_WriteReg(R13 (SP), 0x20001000)  returns 0x00 (0000ms, 0437ms total)
T138C 000:917 JLINK_WriteReg(R14, 0x20000001)  returns 0x00 (0000ms, 0437ms total)
T138C 000:917 JLINK_WriteReg(R15 (PC), 0x20000108)  returns 0x00 (0000ms, 0437ms total)
T138C 000:917 JLINK_WriteReg(XPSR, 0x01000000)  returns 0x00 (0000ms, 0437ms total)
T138C 000:917 JLINK_WriteReg(MSP, 0x20001000)  returns 0x00 (0000ms, 0437ms total)
T138C 000:917 JLINK_WriteReg(PSP, 0x20001000)  returns 0x00 (0000ms, 0437ms total)
T138C 000:917 JLINK_WriteReg(CFBP, 0x00000000)  returns 0x00 (0000ms, 0437ms total)
T138C 000:917 JLINK_SetBPEx(Addr = 0x20000000, Type = 0xFFFFFFF2)  returns 0x0000000D (0000ms, 0437ms total)
T138C 000:917 JLINK_Go() -- CPU_ReadMem(4 bytes @ 0xE0001000) (0005ms, 0442ms total)
T138C 000:922 JLINK_IsHalted()  returns FALSE (0002ms, 0444ms total)
T138C 000:926 JLINK_IsHalted() -- CPU_ReadMem(2 bytes @ 0x20000000)  returns TRUE (0005ms, 0447ms total)
T138C 000:931 JLINK_ReadReg(R15 (PC))  returns 0x20000000 (0000ms, 0442ms total)
T138C 000:931 JLINK_ClrBPEx(BPHandle = 0x0000000D)  returns 0x00 (0000ms, 0442ms total)
T138C 000:931 JLINK_ReadReg(R0)  returns 0x00000000 (0000ms, 0442ms total)
T138C 000:938 JLINK_WriteMem(0x20000180, 0x0400 Bytes, ...) - Data: 01 46 00 20 2C 4A 91 42 03 D2 B1 F1 00 6F 00 D3 ... -- CPU_WriteMem(1024 bytes @ 0x20000180)  returns 0x400 (0008ms, 0450ms total)
T138C 000:946 JLINK_WriteReg(R0, 0x08001C00)  returns 0x00 (0000ms, 0450ms total)
T138C 000:946 JLINK_WriteReg(R1, 0x00000400)  returns 0x00 (0000ms, 0450ms total)
T138C 000:946 JLINK_WriteReg(R2, 0x20000180)  returns 0x00 (0000ms, 0450ms total)
T138C 000:946 JLINK_WriteReg(R3, 0x00000000)  returns 0x00 (0000ms, 0450ms total)
T138C 000:946 JLINK_WriteReg(R4, 0x00000000)  returns 0x00 (0000ms, 0450ms total)
T138C 000:946 JLINK_WriteReg(R5, 0x00000000)  returns 0x00 (0000ms, 0450ms total)
T138C 000:946 JLINK_WriteReg(R6, 0x00000000)  returns 0x00 (0000ms, 0450ms total)
T138C 000:946 JLINK_WriteReg(R7, 0x00000000)  returns 0x00 (0000ms, 0450ms total)
T138C 000:946 JLINK_WriteReg(R8, 0x00000000)  returns 0x00 (0000ms, 0450ms total)
T138C 000:946 JLINK_WriteReg(R9, 0x2000017C)  returns 0x00 (0000ms, 0450ms total)
T138C 000:946 JLINK_WriteReg(R10, 0x00000000)  returns 0x00 (0000ms, 0450ms total)
T138C 000:946 JLINK_WriteReg(R11, 0x00000000)  returns 0x00 (0000ms, 0450ms total)
T138C 000:946 JLINK_WriteReg(R12, 0x00000000)  returns 0x00 (0000ms, 0450ms total)
T138C 000:946 JLINK_WriteReg(R13 (SP), 0x20001000)  returns 0x00 (0000ms, 0450ms total)
T138C 000:946 JLINK_WriteReg(R14, 0x20000001)  returns 0x00 (0000ms, 0450ms total)
T138C 000:946 JLINK_WriteReg(R15 (PC), 0x20000108)  returns 0x00 (0000ms, 0450ms total)
T138C 000:946 JLINK_WriteReg(XPSR, 0x01000000)  returns 0x00 (0000ms, 0450ms total)
T138C 000:946 JLINK_WriteReg(MSP, 0x20001000)  returns 0x00 (0000ms, 0450ms total)
T138C 000:946 JLINK_WriteReg(PSP, 0x20001000)  returns 0x00 (0000ms, 0450ms total)
T138C 000:946 JLINK_WriteReg(CFBP, 0x00000000)  returns 0x00 (0000ms, 0450ms total)
T138C 000:946 JLINK_SetBPEx(Addr = 0x20000000, Type = 0xFFFFFFF2)  returns 0x0000000E (0000ms, 0450ms total)
T138C 000:946 JLINK_Go() -- CPU_ReadMem(4 bytes @ 0xE0001000) (0004ms, 0454ms total)
T138C 000:950 JLINK_IsHalted()  returns FALSE (0002ms, 0456ms total)
T138C 000:955 JLINK_IsHalted() -- CPU_ReadMem(2 bytes @ 0x20000000)  returns TRUE (0005ms, 0459ms total)
T138C 000:960 JLINK_ReadReg(R15 (PC))  returns 0x20000000 (0000ms, 0454ms total)
T138C 000:961 JLINK_ClrBPEx(BPHandle = 0x0000000E)  returns 0x00 (0000ms, 0455ms total)
T138C 000:961 JLINK_ReadReg(R0)  returns 0x00000000 (0000ms, 0455ms total)
T138C 000:961 JLINK_WriteMem(0x20000180, 0x0400 Bytes, ...) - Data: D0 60 1E 79 06 F0 03 06 02 2E 13 D1 CF 08 02 F1 ... -- CPU_WriteMem(1024 bytes @ 0x20000180)  returns 0x400 (0008ms, 0463ms total)
T138C 000:969 JLINK_WriteReg(R0, 0x08002000)  returns 0x00 (0000ms, 0463ms total)
T138C 000:969 JLINK_WriteReg(R1, 0x00000400)  returns 0x00 (0000ms, 0463ms total)
T138C 000:969 JLINK_WriteReg(R2, 0x20000180)  returns 0x00 (0000ms, 0463ms total)
T138C 000:969 JLINK_WriteReg(R3, 0x00000000)  returns 0x00 (0000ms, 0463ms total)
T138C 000:969 JLINK_WriteReg(R4, 0x00000000)  returns 0x00 (0000ms, 0463ms total)
T138C 000:969 JLINK_WriteReg(R5, 0x00000000)  returns 0x00 (0000ms, 0463ms total)
T138C 000:969 JLINK_WriteReg(R6, 0x00000000)  returns 0x00 (0000ms, 0463ms total)
T138C 000:969 JLINK_WriteReg(R7, 0x00000000)  returns 0x00 (0000ms, 0463ms total)
T138C 000:969 JLINK_WriteReg(R8, 0x00000000)  returns 0x00 (0000ms, 0463ms total)
T138C 000:969 JLINK_WriteReg(R9, 0x2000017C)  returns 0x00 (0000ms, 0463ms total)
T138C 000:969 JLINK_WriteReg(R10, 0x00000000)  returns 0x00 (0000ms, 0463ms total)
T138C 000:969 JLINK_WriteReg(R11, 0x00000000)  returns 0x00 (0000ms, 0463ms total)
T138C 000:969 JLINK_WriteReg(R12, 0x00000000)  returns 0x00 (0000ms, 0463ms total)
T138C 000:969 JLINK_WriteReg(R13 (SP), 0x20001000)  returns 0x00 (0000ms, 0463ms total)
T138C 000:969 JLINK_WriteReg(R14, 0x20000001)  returns 0x00 (0000ms, 0463ms total)
T138C 000:969 JLINK_WriteReg(R15 (PC), 0x20000108)  returns 0x00 (0000ms, 0463ms total)
T138C 000:969 JLINK_WriteReg(XPSR, 0x01000000)  returns 0x00 (0000ms, 0463ms total)
T138C 000:969 JLINK_WriteReg(MSP, 0x20001000)  returns 0x00 (0000ms, 0463ms total)
T138C 000:969 JLINK_WriteReg(PSP, 0x20001000)  returns 0x00 (0000ms, 0463ms total)
T138C 000:969 JLINK_WriteReg(CFBP, 0x00000000)  returns 0x00 (0000ms, 0463ms total)
T138C 000:969 JLINK_SetBPEx(Addr = 0x20000000, Type = 0xFFFFFFF2)  returns 0x0000000F (0000ms, 0463ms total)
T138C 000:969 JLINK_Go() -- CPU_ReadMem(4 bytes @ 0xE0001000) (0004ms, 0467ms total)
T138C 000:973 JLINK_IsHalted()  returns FALSE (0001ms, 0468ms total)
T138C 000:977 JLINK_IsHalted() -- CPU_ReadMem(2 bytes @ 0x20000000)  returns TRUE (0005ms, 0472ms total)
T138C 000:982 JLINK_ReadReg(R15 (PC))  returns 0x20000000 (0000ms, 0467ms total)
T138C 000:982 JLINK_ClrBPEx(BPHandle = 0x0000000F)  returns 0x00 (0000ms, 0467ms total)
T138C 000:982 JLINK_ReadReg(R0)  returns 0x00000000 (0000ms, 0467ms total)
T138C 000:985 JLINK_WriteMem(0x20000180, 0x0400 Bytes, ...) - Data: 40 60 48 B9 01 20 AE E7 31 48 08 38 00 68 C0 F3 ... -- CPU_WriteMem(1024 bytes @ 0x20000180)  returns 0x400 (0008ms, 0475ms total)
T138C 000:993 JLINK_WriteReg(R0, 0x08002400)  returns 0x00 (0000ms, 0475ms total)
T138C 000:993 JLINK_WriteReg(R1, 0x00000400)  returns 0x00 (0000ms, 0475ms total)
T138C 000:993 JLINK_WriteReg(R2, 0x20000180)  returns 0x00 (0000ms, 0475ms total)
T138C 000:993 JLINK_WriteReg(R3, 0x00000000)  returns 0x00 (0000ms, 0475ms total)
T138C 000:993 JLINK_WriteReg(R4, 0x00000000)  returns 0x00 (0000ms, 0475ms total)
T138C 000:993 JLINK_WriteReg(R5, 0x00000000)  returns 0x00 (0000ms, 0475ms total)
T138C 000:993 JLINK_WriteReg(R6, 0x00000000)  returns 0x00 (0000ms, 0475ms total)
T138C 000:993 JLINK_WriteReg(R7, 0x00000000)  returns 0x00 (0000ms, 0475ms total)
T138C 000:993 JLINK_WriteReg(R8, 0x00000000)  returns 0x00 (0000ms, 0475ms total)
T138C 000:993 JLINK_WriteReg(R9, 0x2000017C)  returns 0x00 (0000ms, 0475ms total)
T138C 000:993 JLINK_WriteReg(R10, 0x00000000)  returns 0x00 (0000ms, 0475ms total)
T138C 000:993 JLINK_WriteReg(R11, 0x00000000)  returns 0x00 (0000ms, 0475ms total)
T138C 000:993 JLINK_WriteReg(R12, 0x00000000)  returns 0x00 (0000ms, 0475ms total)
T138C 000:993 JLINK_WriteReg(R13 (SP), 0x20001000)  returns 0x00 (0000ms, 0475ms total)
T138C 000:993 JLINK_WriteReg(R14, 0x20000001)  returns 0x00 (0000ms, 0475ms total)
T138C 000:993 JLINK_WriteReg(R15 (PC), 0x20000108)  returns 0x00 (0000ms, 0475ms total)
T138C 000:993 JLINK_WriteReg(XPSR, 0x01000000)  returns 0x00 (0000ms, 0475ms total)
T138C 000:993 JLINK_WriteReg(MSP, 0x20001000)  returns 0x00 (0000ms, 0475ms total)
T138C 000:993 JLINK_WriteReg(PSP, 0x20001000)  returns 0x00 (0000ms, 0475ms total)
T138C 000:993 JLINK_WriteReg(CFBP, 0x00000000)  returns 0x00 (0000ms, 0475ms total)
T138C 000:993 JLINK_SetBPEx(Addr = 0x20000000, Type = 0xFFFFFFF2)  returns 0x00000010 (0000ms, 0475ms total)
T138C 000:993 JLINK_Go() -- CPU_ReadMem(4 bytes @ 0xE0001000) (0004ms, 0479ms total)
T138C 000:997 JLINK_IsHalted()  returns FALSE (0003ms, 0482ms total)
T138C 001:006 JLINK_IsHalted() -- CPU_ReadMem(2 bytes @ 0x20000000)  returns TRUE (0005ms, 0484ms total)
T138C 001:011 JLINK_ReadReg(R15 (PC))  returns 0x20000000 (0000ms, 0479ms total)
T138C 001:011 JLINK_ClrBPEx(BPHandle = 0x00000010)  returns 0x00 (0001ms, 0480ms total)
T138C 001:012 JLINK_ReadReg(R0)  returns 0x00000000 (0000ms, 0480ms total)
T138C 001:019 JLINK_WriteMem(0x20000180, 0x0400 Bytes, ...) - Data: C0 F3 40 00 00 28 F1 D1 20 78 00 F0 04 00 04 28 ... -- CPU_WriteMem(1024 bytes @ 0x20000180)  returns 0x400 (0008ms, 0488ms total)
T138C 001:027 JLINK_WriteReg(R0, 0x08002800)  returns 0x00 (0000ms, 0488ms total)
T138C 001:027 JLINK_WriteReg(R1, 0x00000400)  returns 0x00 (0000ms, 0488ms total)
T138C 001:027 JLINK_WriteReg(R2, 0x20000180)  returns 0x00 (0000ms, 0488ms total)
T138C 001:027 JLINK_WriteReg(R3, 0x00000000)  returns 0x00 (0000ms, 0488ms total)
T138C 001:027 JLINK_WriteReg(R4, 0x00000000)  returns 0x00 (0000ms, 0488ms total)
T138C 001:027 JLINK_WriteReg(R5, 0x00000000)  returns 0x00 (0000ms, 0488ms total)
T138C 001:027 JLINK_WriteReg(R6, 0x00000000)  returns 0x00 (0000ms, 0488ms total)
T138C 001:027 JLINK_WriteReg(R7, 0x00000000)  returns 0x00 (0000ms, 0488ms total)
T138C 001:027 JLINK_WriteReg(R8, 0x00000000)  returns 0x00 (0000ms, 0488ms total)
T138C 001:027 JLINK_WriteReg(R9, 0x2000017C)  returns 0x00 (0000ms, 0488ms total)
T138C 001:027 JLINK_WriteReg(R10, 0x00000000)  returns 0x00 (0000ms, 0488ms total)
T138C 001:027 JLINK_WriteReg(R11, 0x00000000)  returns 0x00 (0000ms, 0488ms total)
T138C 001:027 JLINK_WriteReg(R12, 0x00000000)  returns 0x00 (0000ms, 0488ms total)
T138C 001:027 JLINK_WriteReg(R13 (SP), 0x20001000)  returns 0x00 (0000ms, 0488ms total)
T138C 001:027 JLINK_WriteReg(R14, 0x20000001)  returns 0x00 (0000ms, 0488ms total)
T138C 001:027 JLINK_WriteReg(R15 (PC), 0x20000108)  returns 0x00 (0000ms, 0488ms total)
T138C 001:027 JLINK_WriteReg(XPSR, 0x01000000)  returns 0x00 (0000ms, 0488ms total)
T138C 001:027 JLINK_WriteReg(MSP, 0x20001000)  returns 0x00 (0000ms, 0488ms total)
T138C 001:027 JLINK_WriteReg(PSP, 0x20001000)  returns 0x00 (0000ms, 0488ms total)
T138C 001:027 JLINK_WriteReg(CFBP, 0x00000000)  returns 0x00 (0000ms, 0488ms total)
